T0E34 4011:276 SEGGER J-Link V6.22g Log File (0001ms, 121547ms total)
T0E34 4011:276 DLL Compiled: Jan 17 2018 16:39:42 (0001ms, 121547ms total)
T0E34 4011:276 Logging started @ 2018-10-18 18:50 (0001ms, 121547ms total)
T0E34 4011:277 JLINK_SetWarnOutHandler(...) (0000ms, 121547ms total)
T0E34 4011:277 JLINK_OpenEx(...)
Firmware: J-Link OB-SAM3U128-V2-NordicSemi compiled Jan 12 2018 16:05:20
Hardware: V1.00
S/N: 682341892
TELNET listener socket opened on port 19021C:\Program Files (x86)\SEGGER\JLink_V622g\JLinkDevices.xml evaluated successfully.WEBSRV 
Starting webserver (0148ms, 121695ms total)
T0E34 4011:277 WEBSRV Webserver running on local port 19080 (0148ms, 121695ms total)
T0E34 4011:277   returns O.K. (0148ms, 121695ms total)
T0E34 4011:426 JLINK_GetEmuCaps()  returns 0xB8EA5A33 (0000ms, 121695ms total)
T0E34 4011:426 JLINK_TIF_GetAvailable(...) (0000ms, 121695ms total)
T0E34 4011:426 JLINK_SetErrorOutHandler(...) (0000ms, 121695ms total)
T0E34 4011:426 JLINK_ExecCommand("ProjectFile = "C:\nRF5_SDK\examples\peripheral\template_project_dtek8081\pca10040\blank\arm5_no_packs\JLinkSettings.ini"", ...).   returns 0x00 (0001ms, 121696ms total)
T0E34 4011:427 JLINK_ExecCommand("Device = nRF52832_xxAA", ...). Device "NRF52832_XXAA" selected.  returns 0x00 (0001ms, 121697ms total)
T0E34 4011:428 JLINK_ExecCommand("DisableConnectionTimeout", ...).   returns 0x01 (0000ms, 121697ms total)
T0E34 4011:428 JLINK_GetHardwareVersion()  returns 0x2710 (0000ms, 121697ms total)
T0E34 4011:429 JLINK_GetDLLVersion()  returns 62207 (0000ms, 121697ms total)
T0E34 4011:429 JLINK_GetFirmwareString(...) (0000ms, 121697ms total)
T0E34 4011:429 JLINK_GetDLLVersion()  returns 62207 (0000ms, 121697ms total)
T0E34 4011:429 JLINK_GetCompileDateTime() (0000ms, 121697ms total)
T0E34 4011:429 JLINK_GetFirmwareString(...) (0000ms, 121697ms total)
T0E34 4011:429 JLINK_GetHardwareVersion()  returns 0x2710 (0000ms, 121697ms total)
T0E34 4011:429 JLINK_TIF_Select(JLINKARM_TIF_SWD)  returns 0x00 (0001ms, 121698ms total)
T0E34 4011:430 JLINK_SetSpeed(5000) (0000ms, 121698ms total)
T0E34 4011:430 JLINK_GetId() >0x10B TIF>Found SW-DP with ID 0x2BA01477 >0x0D TIF> >0x28 TIF> >0x0D TIF> >0x28 TIF> >0x10B TIF>Found SW-DP with ID 0x2BA01477 >0x0D TIF> >0x28 TIF> >0x0D TIF> >0x28 TIF> >0x0D TIF> >0x28 TIF> >0x0D TIF> >0x28 TIF> >0x35 TIF> >0x0D TIF> >0x28 TIF>Scanning AP map to find all available APs >0x0D TIF> >0x28 TIF> >0x35 TIF> >0x35 TIF> >0x0D TIF> >0x28 TIF> >0x35 TIF> >0x35 TIF> >0x0D TIF> >0x28 TIF> >0x35 TIF> >0x35 TIF>AP[2]: Stopped AP scan as end of AP map has been reached
AP[0]: AHB-AP (IDR: 0x24770011)AP[1]: JTAG-AP (IDR: 0x02880000)Iterating through AP map to find AHB-AP to use >0x42 TIF> >0x28 TIF> >0x0D TIF> >0x28 TIF> >0x35 TIF> >0x35 TIF> >0x42 TIF> >0x28 TIF> >0x0D TIF> >0x28 TIF> >0x0D TIF> >0x28 TIF> >0x35 TIF> >0x35 TIF>AP[0]: Core foundAP[0]: AHB-AP ROM base: 0xE00FF000 >0x0D TIF> >0x28 TIF> >0x0D TIF> >0x28 TIF> >0x0D TIF> >0x28 TIF> >0x35 TIF> >0x35 TIF>CPUID register: 0x410FC241. Implementer code: 0x41 (ARM)Found Cortex-M4 r0p1, Little endian.
 -- CPU_ReadMem(4 bytes @ 0xE000EDF0) -- CPU_WriteMem(4 bytes @ 0xE000EDF0) -- CPU_ReadMem(4 bytes @ 0xE0002000)FPUnit: 6 code (BP) slots and 2 literal slots -- CPU_ReadMem(4 bytes @ 0xE000EDFC) -- CPU_WriteMem(4 bytes @ 0xE000EDFC) -- CPU_ReadMem(4 bytes @ 0xE0001000) -- CPU_WriteMem(4 bytes @ 0xE0001000) -- CPU_ReadMem(4 bytes @ 0xE000ED88) -- CPU_WriteMem(4 bytes @ 0xE000ED88) -- CPU_ReadMem(4 bytes @ 0xE000ED88) -- CPU_WriteMem(4 bytes @ 0xE000ED88)CoreSight components:ROMTbl[0] @ E00FF000
 -- CPU_ReadMem(16 bytes @ 0xE00FF000) -- CPU_ReadMem(16 bytes @ 0xE000EFF0) -- CPU_ReadMem(16 bytes @ 0xE000EFE0)ROMTbl[0][0]: E000E000, CID: B105E00D, PID: 000BB00C SCS-M7 -- CPU_ReadMem(16 bytes @ 0xE0001FF0) -- CPU_ReadMem(16 bytes @ 0xE0001FE0)ROMTbl[0][1]: E0001000, CID: B105E00D, PID: 003BB002 DWT -- CPU_ReadMem(16 bytes @ 0xE0002FF0) -- CPU_ReadMem(16 bytes @ 0xE0002FE0)ROMTbl[0][2]: E0002000, CID: B105E00D, PID: 002BB003 FPB -- CPU_ReadMem(16 bytes @ 0xE0000FF0)
 -- CPU_ReadMem(16 bytes @ 0xE0000FE0)ROMTbl[0][3]: E0000000, CID: B105E00D, PID: 003BB001 ITM -- CPU_ReadMem(16 bytes @ 0xE00FF010) -- CPU_ReadMem(16 bytes @ 0xE0040FF0) -- CPU_ReadMem(16 bytes @ 0xE0040FE0)ROMTbl[0][4]: E0040000, CID: B105900D, PID: 000BB9A1 TPIU -- CPU_ReadMem(16 bytes @ 0xE0041FF0) -- CPU_ReadMem(16 bytes @ 0xE0041FE0)ROMTbl[0][5]: E0041000, CID: B105900D, PID: 000BB925 ETM >0x35 TIF>  returns 0x2BA01477 (0144ms, 121842ms total)
T0E34 4011:574 JLINK_GetDLLVersion()  returns 62207 (0000ms, 121842ms total)
T0E34 4011:574 JLINK_CORE_GetFound()  returns 0xE0000FF (0000ms, 121842ms total)
T0E34 4011:574 JLINK_GetDebugInfo(0x100 = JLINKARM_ROM_TABLE_ADDR_INDEX) -- Value=0xE00FF000  returns 0x00 (0000ms, 121842ms total)
T0E34 4011:574 JLINK_GetDebugInfo(0x100 = JLINKARM_ROM_TABLE_ADDR_INDEX) -- Value=0xE00FF000  returns 0x00 (0000ms, 121842ms total)
T0E34 4011:574 JLINK_GetDebugInfo(0x101 = JLINKARM_DEBUG_INFO_ETM_ADDR_INDEX) -- Value=0xE0041000  returns 0x00 (0000ms, 121842ms total)
T0E34 4011:574 JLINK_ReadMemEx(0xE0041FD0, 0x0020 Bytes, ..., Flags = 0x02000004) -- CPU_ReadMem(32 bytes @ 0xE0041FD0) - Data: 04 00 00 00 00 00 00 00 00 00 00 00 00 00 00 00 ...  returns 0x20 (0001ms, 121843ms total)
T0E34 4011:575 JLINK_GetDebugInfo(0x102 = JLINKARM_DEBUG_INFO_MTB_ADDR_INDEX) -- Value=0x00000000  returns 0x00 (0000ms, 121843ms total)
T0E34 4011:575 JLINK_GetDebugInfo(0x103 = JLINKARM_DEBUG_INFO_TPIU_ADDR_INDEX) -- Value=0xE0040000  returns 0x00 (0000ms, 121843ms total)
T0E34 4011:575 JLINK_GetDebugInfo(0x104 = JLINKARM_DEBUG_INFO_ITM_ADDR_INDEX) -- Value=0xE0000000  returns 0x00 (0000ms, 121843ms total)
T0E34 4011:575 JLINK_GetDebugInfo(0x105 = JLINKARM_DEBUG_INFO_DWT_ADDR_INDEX) -- Value=0xE0001000  returns 0x00 (0000ms, 121843ms total)
T0E34 4011:575 JLINK_GetDebugInfo(0x106 = JLINKARM_DEBUG_INFO_FPB_ADDR_INDEX) -- Value=0xE0002000  returns 0x00 (0000ms, 121843ms total)
T0E34 4011:575 JLINK_GetDebugInfo(0x107 = JLINKARM_DEBUG_INFO_NVIC_ADDR_INDEX) -- Value=0xE000E000  returns 0x00 (0000ms, 121843ms total)
T0E34 4011:575 JLINK_GetDebugInfo(0x10C = JLINKARM_DEBUG_INFO_DBG_ADDR_INDEX) -- Value=0xE000EDF0  returns 0x00 (0000ms, 121843ms total)
T0E34 4011:575 JLINK_GetDebugInfo(0x01 = Unknown) -- Value=0x00000001  returns 0x00 (0000ms, 121843ms total)
T0E34 4011:575 JLINK_ReadMemU32(0xE000ED00, 0x0001 Items, ...) -- CPU_ReadMem(4 bytes @ 0xE000ED00) - Data: 41 C2 0F 41  returns 0x01 (0001ms, 121844ms total)
T0E34 4011:576 JLINK_GetDebugInfo(0x10F = JLINKARM_DEBUG_INFO_HAS_CORTEX_M_SECURITY_EXT_INDEX) -- Value=0x00000000  returns 0x00 (0001ms, 121845ms total)
T0E34 4011:577 JLINK_SetResetType(JLINKARM_CM3_RESET_TYPE_NORMAL)  returns JLINKARM_CM3_RESET_TYPE_NORMAL (0000ms, 121845ms total)
T0E34 4011:577 JLINK_Reset() -- CPU is running -- CPU_WriteMem(4 bytes @ 0xE000EDF0) -- CPU is running -- CPU_WriteMem(4 bytes @ 0xE000EDFC)Reset: Halt core after reset via DEMCR.VC_CORERESET. >0x35 TIF>Reset: Reset device via AIRCR.SYSRESETREQ. -- CPU is running -- CPU_WriteMem(4 bytes @ 0xE000ED0C) >0x0D TIF> >0x28 TIF> -- CPU_ReadMem(4 bytes @ 0xE000EDF0) -- CPU_ReadMem(4 bytes @ 0xE000EDF0) -- CPU is running -- CPU_WriteMem(4 bytes @ 0xE000EDF0) -- CPU is running -- CPU_WriteMem(4 bytes @ 0xE000EDFC)
 -- CPU_ReadMem(4 bytes @ 0xE000EDF0) -- CPU_WriteMem(4 bytes @ 0xE0002000) -- CPU_ReadMem(4 bytes @ 0xE000EDFC) -- CPU_ReadMem(4 bytes @ 0xE0001000) (0076ms, 121921ms total)
T0E34 4011:653 JLINK_ReadReg(R15 (PC))  returns 0x000003F4 (0000ms, 121921ms total)
T0E34 4011:653 JLINK_ReadReg(XPSR)  returns 0x01000000 (0000ms, 121921ms total)
T0E34 4011:653 JLINK_Halt()  returns 0x00 (0000ms, 121921ms total)
T0E34 4011:653 JLINK_ReadMemU32(0xE000EDF0, 0x0001 Items, ...) -- CPU_ReadMem(4 bytes @ 0xE000EDF0) - Data: 03 00 03 00  returns 0x01 (0001ms, 121922ms total)
T0E34 4011:654 JLINK_WriteU32(0xE000EDF0, 0xA05F0003) -- CPU_WriteMem(4 bytes @ 0xE000EDF0)  returns 0x00 (0001ms, 121923ms total)
T0E34 4011:655 JLINK_WriteU32(0xE000EDFC, 0x01000000) -- CPU_WriteMem(4 bytes @ 0xE000EDFC)  returns 0x00 (0001ms, 121924ms total)
T0E34 4011:656 JLINK_GetHWStatus(...)  returns 0x00 (0000ms, 121924ms total)
T0E34 4011:656 JLINK_GetNumBPUnits(Type = 0xFFFFFF00)  returns 0x06 (0000ms, 121924ms total)
T0E34 4011:656 JLINK_GetNumBPUnits(Type = 0xF0)  returns 0x2000 (0000ms, 121924ms total)
T0E34 4011:656 JLINK_GetNumWPUnits()  returns 0x04 (0000ms, 121924ms total)
T0E34 4011:656 JLINK_GetSpeed()  returns 0x3E8 (0000ms, 121924ms total)
T0E34 4011:656 JLINK_ReadMemU32(0xE000E004, 0x0001 Items, ...) -- CPU_ReadMem(4 bytes @ 0xE000E004) - Data: 01 00 00 00  returns 0x01 (0001ms, 121925ms total)
T0E34 4011:657 JLINK_ReadMemU32(0xE000E004, 0x0001 Items, ...) -- CPU_ReadMem(4 bytes @ 0xE000E004) - Data: 01 00 00 00  returns 0x01 (0002ms, 121927ms total)
T0E34 4011:659 JLINK_WriteMemEx(0xE0001000, 0x001C Bytes, ..., Flags = 0x02000004) - Data: 01 00 00 00 00 00 00 00 00 00 00 00 00 00 00 00 ... -- CPU_WriteMem(28 bytes @ 0xE0001000)  returns 0x1C (0001ms, 121928ms total)
T0E34 4011:660 JLINK_ReadReg(R15 (PC))  returns 0x000003F4 (0000ms, 121928ms total)
T0E34 4011:660 JLINK_ReadReg(XPSR)  returns 0x01000000 (0000ms, 121928ms total)
T0E34 4011:665 JLINK_ReadMemEx(0xE0001004, 0x0004 Bytes, ..., Flags = 0x02000000) - Data: 00 00 00 00  returns 0x04 (0000ms, 121928ms total)
T0E34 4011:767 JLINK_SetResetType(JLINKARM_CM3_RESET_TYPE_NORMAL)  returns JLINKARM_CM3_RESET_TYPE_NORMAL (0000ms, 121928ms total)
T0E34 4011:767 JLINK_Reset() -- CPU_WriteMem(4 bytes @ 0xE000EDF0) -- CPU_WriteMem(4 bytes @ 0xE000EDFC)Reset: Halt core after reset via DEMCR.VC_CORERESET. >0x35 TIF>Reset: Reset device via AIRCR.SYSRESETREQ. -- CPU_WriteMem(4 bytes @ 0xE000ED0C) >0x0D TIF> >0x28 TIF> -- CPU_ReadMem(4 bytes @ 0xE000EDF0) -- CPU_ReadMem(4 bytes @ 0xE000EDF0) -- CPU_WriteMem(4 bytes @ 0xE000EDF0) -- CPU_WriteMem(4 bytes @ 0xE000EDFC) -- CPU_ReadMem(4 bytes @ 0xE000EDF0) -- CPU_WriteMem(4 bytes @ 0xE0002000)
 -- CPU_ReadMem(4 bytes @ 0xE000EDFC) -- CPU_ReadMem(4 bytes @ 0xE0001000) (0076ms, 122004ms total)
T0E34 4011:843 JLINK_ReadReg(R15 (PC))  returns 0x000003F4 (0000ms, 122004ms total)
T0E34 4011:843 JLINK_ReadReg(XPSR)  returns 0x01000000 (0000ms, 122004ms total)
T0E34 4011:843 JLINK_ReadMemEx(0x000003F4, 0x000C Bytes, ..., Flags = 0x02000000) -- CPU_ReadMem(64 bytes @ 0x000003C0) -- Updating C cache (64 bytes @ 0x000003C0) -- Read from C cache (12 bytes @ 0x000003F4) - Data: 06 48 80 47 06 48 00 47 FE E7 FE E7  returns 0x0C (0002ms, 122006ms total)
T0E34 4011:845 JLINK_ReadMemEx(0x00000400, 0x0030 Bytes, ..., Flags = 0x02000000) -- CPU_ReadMem(64 bytes @ 0x00000400) -- Updating C cache (64 bytes @ 0x00000400) -- Read from C cache (48 bytes @ 0x00000400) - Data: FE E7 FE E7 FE E7 FE E7 FE E7 FE E7 FE E7 FE E7 ...  returns 0x30 (0001ms, 122007ms total)
T0E34 4011:930 JLINK_ReadMemEx(0x40003108, 0x0004 Bytes, ..., Flags = 0x02000004) -- CPU_ReadMem(4 bytes @ 0x40003108) - Data: 00 00 00 00  returns 0x04 (0001ms, 122008ms total)
T0E34 4011:931 JLINK_ReadMemEx(0x40003304, 0x0004 Bytes, ..., Flags = 0x02000004) -- CPU_ReadMem(4 bytes @ 0x40003304) - Data: 00 00 00 00  returns 0x04 (0000ms, 122008ms total)
T0E34 4011:931 JLINK_ReadMemEx(0x40003308, 0x0004 Bytes, ..., Flags = 0x02000004) -- CPU_ReadMem(4 bytes @ 0x40003308) - Data: 00 00 00 00  returns 0x04 (0001ms, 122009ms total)
T0E34 4011:932 JLINK_ReadMemEx(0x40003500, 0x0004 Bytes, ..., Flags = 0x02000004) -- CPU_ReadMem(4 bytes @ 0x40003500) - Data: 00 00 00 00  returns 0x04 (0001ms, 122010ms total)
T0E34 4011:933 JLINK_ReadMemEx(0x40003508, 0x0008 Bytes, ..., Flags = 0x02000004) -- CPU_ReadMem(8 bytes @ 0x40003508) - Data: FF FF FF FF FF FF FF FF  returns 0x08 (0000ms, 122010ms total)
T0E34 4011:933 JLINK_ReadMemEx(0x40003510, 0x0004 Bytes, ..., Flags = 0x02000004) -- CPU_ReadMem(4 bytes @ 0x40003510) - Data: FF FF FF FF  returns 0x04 (0001ms, 122011ms total)
T0E34 4011:934 JLINK_ReadMemEx(0x4000351C, 0x0004 Bytes, ..., Flags = 0x02000004) -- CPU_ReadMem(4 bytes @ 0x4000351C) - Data: 00 00 00 00  returns 0x04 (0001ms, 122012ms total)
T0E34 4011:935 JLINK_ReadMemEx(0x40003524, 0x0004 Bytes, ..., Flags = 0x02000004) -- CPU_ReadMem(4 bytes @ 0x40003524) - Data: 00 00 00 04  returns 0x04 (0000ms, 122012ms total)
T0E34 4011:935 JLINK_ReadMemEx(0x40003554, 0x0004 Bytes, ..., Flags = 0x02000004) -- CPU_ReadMem(4 bytes @ 0x40003554) - Data: 00 00 00 00  returns 0x04 (0001ms, 122013ms total)
T0E34 4013:117 JLINK_ReadReg(R0)  returns 0x00000000 (0000ms, 122013ms total)
T0E34 4013:117 JLINK_ReadReg(R1)  returns 0x00000000 (0000ms, 122013ms total)
T0E34 4013:117 JLINK_ReadReg(R2)  returns 0x00000000 (0000ms, 122013ms total)
T0E34 4013:117 JLINK_ReadReg(R3)  returns 0x00000000 (0001ms, 122014ms total)
T0E34 4013:118 JLINK_ReadReg(R4)  returns 0x00000000 (0000ms, 122014ms total)
T0E34 4013:118 JLINK_ReadReg(R5)  returns 0x00000000 (0000ms, 122014ms total)
T0E34 4013:118 JLINK_ReadReg(R6)  returns 0x00000000 (0000ms, 122014ms total)
T0E34 4013:118 JLINK_ReadReg(R7)  returns 0x00000000 (0000ms, 122014ms total)
T0E34 4013:118 JLINK_ReadReg(R8)  returns 0x00000000 (0000ms, 122014ms total)
T0E34 4013:118 JLINK_ReadReg(R9)  returns 0x00000000 (0000ms, 122014ms total)
T0E34 4013:118 JLINK_ReadReg(R10)  returns 0x00000000 (0000ms, 122014ms total)
T0E34 4013:118 JLINK_ReadReg(R11)  returns 0x00000000 (0000ms, 122014ms total)
T0E34 4013:118 JLINK_ReadReg(R12)  returns 0x00000000 (0000ms, 122014ms total)
T0E34 4013:118 JLINK_ReadReg(R13 (SP))  returns 0x20005D28 (0000ms, 122014ms total)
T0E34 4013:118 JLINK_ReadReg(R14)  returns 0xFFFFFFFF (0000ms, 122014ms total)
T0E34 4013:118 JLINK_ReadReg(R15 (PC))  returns 0x000003F4 (0000ms, 122014ms total)
T0E34 4013:118 JLINK_ReadReg(XPSR)  returns 0x01000000 (0000ms, 122014ms total)
T0E34 4013:118 JLINK_ReadReg(MSP)  returns 0x20005D28 (0000ms, 122014ms total)
T0E34 4013:118 JLINK_ReadReg(PSP)  returns 0x00000000 (0000ms, 122014ms total)
T0E34 4013:118 JLINK_ReadReg(CFBP)  returns 0x00000000 (0000ms, 122014ms total)
T0E34 4013:118 JLINK_ReadReg(FPSCR)  returns 0x00000000 (0010ms, 122024ms total)
T0E34 4013:128 JLINK_ReadReg(FPS0)  returns 0x00000000 (0000ms, 122024ms total)
T0E34 4013:128 JLINK_ReadReg(FPS1)  returns 0x00000000 (0001ms, 122025ms total)
T0E34 4013:129 JLINK_ReadReg(FPS2)  returns 0x00000000 (0000ms, 122025ms total)
T0E34 4013:129 JLINK_ReadReg(FPS3)  returns 0x00000000 (0000ms, 122025ms total)
T0E34 4013:129 JLINK_ReadReg(FPS4)  returns 0x00000000 (0000ms, 122025ms total)
T0E34 4013:129 JLINK_ReadReg(FPS5)  returns 0x00000000 (0000ms, 122025ms total)
T0E34 4013:129 JLINK_ReadReg(FPS6)  returns 0x00000000 (0000ms, 122025ms total)
T0E34 4013:129 JLINK_ReadReg(FPS7)  returns 0x00000000 (0000ms, 122025ms total)
T0E34 4013:129 JLINK_ReadReg(FPS8)  returns 0x00000000 (0000ms, 122025ms total)
T0E34 4013:129 JLINK_ReadReg(FPS9)  returns 0x00000000 (0000ms, 122025ms total)
T0E34 4013:129 JLINK_ReadReg(FPS10)  returns 0x00000000 (0000ms, 122025ms total)
T0E34 4013:129 JLINK_ReadReg(FPS11)  returns 0x00000000 (0000ms, 122025ms total)
T0E34 4013:129 JLINK_ReadReg(FPS12)  returns 0x00000000 (0000ms, 122025ms total)
T0E34 4013:129 JLINK_ReadReg(FPS13)  returns 0x00000000 (0000ms, 122025ms total)
T0E34 4013:129 JLINK_ReadReg(FPS14)  returns 0x00000000 (0000ms, 122025ms total)
T0E34 4013:129 JLINK_ReadReg(FPS15)  returns 0x00000000 (0000ms, 122025ms total)
T0E34 4013:129 JLINK_ReadReg(FPS16)  returns 0x00000000 (0000ms, 122025ms total)
T0E34 4013:129 JLINK_ReadReg(FPS17)  returns 0x00000000 (0000ms, 122025ms total)
T0E34 4013:129 JLINK_ReadReg(FPS18)  returns 0x00000000 (0000ms, 122025ms total)
T0E34 4013:129 JLINK_ReadReg(FPS19)  returns 0x00000000 (0000ms, 122025ms total)
T0E34 4013:129 JLINK_ReadReg(FPS20)  returns 0x00000000 (0000ms, 122025ms total)
T0E34 4013:129 JLINK_ReadReg(FPS21)  returns 0x00000000 (0000ms, 122025ms total)
T0E34 4013:129 JLINK_ReadReg(FPS22)  returns 0x00000000 (0000ms, 122025ms total)
T0E34 4013:129 JLINK_ReadReg(FPS23)  returns 0x00000000 (0000ms, 122025ms total)
T0E34 4013:129 JLINK_ReadReg(FPS24)  returns 0x00000000 (0000ms, 122025ms total)
T0E34 4013:129 JLINK_ReadReg(FPS25)  returns 0x00000000 (0000ms, 122025ms total)
T0E34 4013:129 JLINK_ReadReg(FPS26)  returns 0x00000000 (0000ms, 122025ms total)
T0E34 4013:129 JLINK_ReadReg(FPS27)  returns 0x00000000 (0000ms, 122025ms total)
T0E34 4013:129 JLINK_ReadReg(FPS28)  returns 0x00000000 (0000ms, 122025ms total)
T0E34 4013:129 JLINK_ReadReg(FPS29)  returns 0x00000000 (0000ms, 122025ms total)
T0E34 4013:129 JLINK_ReadReg(FPS30)  returns 0x00000000 (0000ms, 122025ms total)
T0E34 4013:129 JLINK_ReadReg(FPS31)  returns 0x00000000 (0000ms, 122025ms total)
T0E34 4013:166 JLINK_ReadMemEx(0x20000622, 0x0002 Bytes, ..., Flags = 0x02000000) -- CPU_ReadMem(64 bytes @ 0x20000600) -- Updating C cache (64 bytes @ 0x20000600) -- Read from C cache (2 bytes @ 0x20000622) - Data: 00 00  returns 0x02 (0002ms, 122027ms total)
T1350 4013:197 JLINK_ReadMemEx(0x000003F4, 0x0002 Bytes, ..., Flags = 0x02000000) -- Read from C cache (2 bytes @ 0x000003F4) - Data: 06 48  returns 0x02 (0000ms, 122027ms total)
T1350 4013:197 JLINK_SetBPEx(Addr = 0x00003B64, Type = 0xFFFFFFF2)  returns 0x00000001 (0000ms, 122027ms total)
T1350 4013:197 JLINK_SetBPEx(Addr = 0x00001FCE, Type = 0xFFFFFFF2)  returns 0x00000002 (0000ms, 122027ms total)
T1350 4013:197 JLINK_SetBPEx(Addr = 0x00001FCC, Type = 0xFFFFFFF2)  returns 0x00000003 (0000ms, 122027ms total)
T1350 4013:197 JLINK_SetBPEx(Addr = 0x0000367E, Type = 0xFFFFFFF2)  returns 0x00000004 (0001ms, 122028ms total)
T1350 4013:198 JLINK_Go() -- CPU_WriteMem(4 bytes @ 0xE0002000) -- CPU_WriteMem(4 bytes @ 0xE0002000) -- CPU_WriteMem(4 bytes @ 0xE0002000) -- CPU_WriteMem(4 bytes @ 0xE0002000) -- CPU_ReadMem(4 bytes @ 0xE0001000) -- CPU_WriteMem(4 bytes @ 0xE0002008) -- CPU_WriteMem(4 bytes @ 0xE000200C) -- CPU_WriteMem(4 bytes @ 0xE0002010) -- CPU_WriteMem(4 bytes @ 0xE0002014) -- CPU_WriteMem(4 bytes @ 0xE0002018) -- CPU_WriteMem(4 bytes @ 0xE000201C) -- CPU_WriteMem(4 bytes @ 0xE0001004) (0006ms, 122034ms total)
T1350 4013:305 JLINK_IsHalted()  returns TRUE (0006ms, 122040ms total)
T1350 4013:311 JLINK_Halt()  returns 0x00 (0000ms, 122034ms total)
T1350 4013:311 JLINK_IsHalted()  returns TRUE (0000ms, 122034ms total)
T1350 4013:311 JLINK_IsHalted()  returns TRUE (0000ms, 122034ms total)
T1350 4013:311 JLINK_IsHalted()  returns TRUE (0000ms, 122034ms total)
T1350 4013:311 JLINK_ReadReg(R15 (PC))  returns 0x00003B64 (0000ms, 122034ms total)
T1350 4013:311 JLINK_ReadReg(XPSR)  returns 0x61000000 (0000ms, 122034ms total)
T1350 4013:311 JLINK_ClrBPEx(BPHandle = 0x00000001)  returns 0x00 (0000ms, 122034ms total)
T1350 4013:311 JLINK_ClrBPEx(BPHandle = 0x00000002)  returns 0x00 (0000ms, 122034ms total)
T1350 4013:311 JLINK_ClrBPEx(BPHandle = 0x00000003)  returns 0x00 (0000ms, 122034ms total)
T1350 4013:311 JLINK_ClrBPEx(BPHandle = 0x00000004)  returns 0x00 (0000ms, 122034ms total)
T1350 4013:311 JLINK_ReadMemU32(0xE000ED30, 0x0001 Items, ...) -- CPU_ReadMem(4 bytes @ 0xE000ED30) - Data: 02 00 00 00  returns 0x01 (0001ms, 122035ms total)
T1350 4013:312 JLINK_ReadMemU32(0xE0001028, 0x0001 Items, ...) -- CPU_ReadMem(4 bytes @ 0xE0001028) - Data: 00 00 00 00  returns 0x01 (0000ms, 122035ms total)
T1350 4013:312 JLINK_ReadMemU32(0xE0001038, 0x0001 Items, ...) -- CPU_ReadMem(4 bytes @ 0xE0001038) - Data: 00 02 00 00  returns 0x01 (0001ms, 122036ms total)
T1350 4013:313 JLINK_ReadMemU32(0xE0001048, 0x0001 Items, ...) -- CPU_ReadMem(4 bytes @ 0xE0001048) - Data: 00 00 00 00  returns 0x01 (0001ms, 122037ms total)
T1350 4013:314 JLINK_ReadMemU32(0xE0001058, 0x0001 Items, ...) -- CPU_ReadMem(4 bytes @ 0xE0001058) - Data: 00 00 00 00  returns 0x01 (0000ms, 122037ms total)
T1350 4013:314 JLINK_ReadReg(R0)  returns 0x00003B65 (0000ms, 122037ms total)
T1350 4013:314 JLINK_ReadReg(R1)  returns 0x20005D28 (0001ms, 122038ms total)
T1350 4013:315 JLINK_ReadReg(R2)  returns 0x00000000 (0000ms, 122038ms total)
T1350 4013:315 JLINK_ReadReg(R3)  returns 0x000014F5 (0000ms, 122038ms total)
T1350 4013:315 JLINK_ReadReg(R4)  returns 0x0000773C (0000ms, 122038ms total)
T1350 4013:315 JLINK_ReadReg(R5)  returns 0x0000773C (0000ms, 122038ms total)
T1350 4013:315 JLINK_ReadReg(R6)  returns 0x00000000 (0000ms, 122038ms total)
T1350 4013:315 JLINK_ReadReg(R7)  returns 0x00000000 (0000ms, 122038ms total)
T1350 4013:315 JLINK_ReadReg(R8)  returns 0x00000000 (0000ms, 122038ms total)
T1350 4013:315 JLINK_ReadReg(R9)  returns 0x00000000 (0000ms, 122038ms total)
T1350 4013:315 JLINK_ReadReg(R10)  returns 0x00000000 (0000ms, 122038ms total)
T1350 4013:315 JLINK_ReadReg(R11)  returns 0x00000000 (0000ms, 122038ms total)
T1350 4013:315 JLINK_ReadReg(R12)  returns 0x00000000 (0000ms, 122038ms total)
T1350 4013:315 JLINK_ReadReg(R13 (SP))  returns 0x20005D28 (0000ms, 122038ms total)
T1350 4013:315 JLINK_ReadReg(R14)  returns 0x00000A01 (0000ms, 122038ms total)
T1350 4013:315 JLINK_ReadReg(R15 (PC))  returns 0x00003B64 (0000ms, 122038ms total)
T1350 4013:315 JLINK_ReadReg(XPSR)  returns 0x61000000 (0000ms, 122038ms total)
T1350 4013:315 JLINK_ReadReg(MSP)  returns 0x20005D28 (0000ms, 122038ms total)
T1350 4013:315 JLINK_ReadReg(PSP)  returns 0x00000000 (0000ms, 122038ms total)
T1350 4013:315 JLINK_ReadReg(CFBP)  returns 0x00000000 (0000ms, 122038ms total)
T1350 4013:315 JLINK_ReadReg(FPSCR)  returns 0x00000000 (0010ms, 122048ms total)
T1350 4013:325 JLINK_ReadReg(FPS0)  returns 0x00000000 (0000ms, 122048ms total)
T1350 4013:325 JLINK_ReadReg(FPS1)  returns 0x00000000 (0000ms, 122048ms total)
T1350 4013:325 JLINK_ReadReg(FPS2)  returns 0x00000000 (0000ms, 122048ms total)
T1350 4013:325 JLINK_ReadReg(FPS3)  returns 0x00000000 (0000ms, 122048ms total)
T1350 4013:325 JLINK_ReadReg(FPS4)  returns 0x00000000 (0000ms, 122048ms total)
T1350 4013:325 JLINK_ReadReg(FPS5)  returns 0x00000000 (0000ms, 122048ms total)
T1350 4013:325 JLINK_ReadReg(FPS6)  returns 0x00000000 (0000ms, 122048ms total)
T1350 4013:325 JLINK_ReadReg(FPS7)  returns 0x00000000 (0000ms, 122048ms total)
T1350 4013:325 JLINK_ReadReg(FPS8)  returns 0x00000000 (0000ms, 122048ms total)
T1350 4013:325 JLINK_ReadReg(FPS9)  returns 0x00000000 (0001ms, 122049ms total)
T1350 4013:326 JLINK_ReadReg(FPS10)  returns 0x00000000 (0000ms, 122049ms total)
T1350 4013:326 JLINK_ReadReg(FPS11)  returns 0x00000000 (0000ms, 122049ms total)
T1350 4013:326 JLINK_ReadReg(FPS12)  returns 0x00000000 (0000ms, 122049ms total)
T1350 4013:326 JLINK_ReadReg(FPS13)  returns 0x00000000 (0000ms, 122049ms total)
T1350 4013:326 JLINK_ReadReg(FPS14)  returns 0x00000000 (0000ms, 122049ms total)
T1350 4013:326 JLINK_ReadReg(FPS15)  returns 0x00000000 (0000ms, 122049ms total)
T1350 4013:326 JLINK_ReadReg(FPS16)  returns 0x00000000 (0000ms, 122049ms total)
T1350 4013:326 JLINK_ReadReg(FPS17)  returns 0x00000000 (0000ms, 122049ms total)
T1350 4013:326 JLINK_ReadReg(FPS18)  returns 0x00000000 (0000ms, 122049ms total)
T1350 4013:326 JLINK_ReadReg(FPS19)  returns 0x00000000 (0000ms, 122049ms total)
T1350 4013:326 JLINK_ReadReg(FPS20)  returns 0x00000000 (0000ms, 122049ms total)
T1350 4013:326 JLINK_ReadReg(FPS21)  returns 0x00000000 (0000ms, 122049ms total)
T1350 4013:326 JLINK_ReadReg(FPS22)  returns 0x00000000 (0000ms, 122049ms total)
T1350 4013:326 JLINK_ReadReg(FPS23)  returns 0x00000000 (0000ms, 122049ms total)
T1350 4013:326 JLINK_ReadReg(FPS24)  returns 0x00000000 (0000ms, 122049ms total)
T1350 4013:326 JLINK_ReadReg(FPS25)  returns 0x00000000 (0000ms, 122049ms total)
T1350 4013:326 JLINK_ReadReg(FPS26)  returns 0x00000000 (0000ms, 122049ms total)
T1350 4013:326 JLINK_ReadReg(FPS27)  returns 0x00000000 (0000ms, 122049ms total)
T1350 4013:326 JLINK_ReadReg(FPS28)  returns 0x00000000 (0000ms, 122049ms total)
T1350 4013:326 JLINK_ReadReg(FPS29)  returns 0x00000000 (0000ms, 122049ms total)
T1350 4013:326 JLINK_ReadReg(FPS30)  returns 0x00000000 (0000ms, 122049ms total)
T1350 4013:326 JLINK_ReadReg(FPS31)  returns 0x00000000 (0000ms, 122049ms total)
T0E34 4013:326 JLINK_ReadMemEx(0x00000000, 0x0004 Bytes, ..., Flags = 0x02000000) -- CPU_ReadMem(64 bytes @ 0x00000000) -- Updating C cache (64 bytes @ 0x00000000) -- Read from C cache (4 bytes @ 0x00000000) - Data: 28 5D 00 20  returns 0x04 (0002ms, 122051ms total)
T0E34 4013:328 JLINK_ReadMemEx(0x20000770, 0x0020 Bytes, ..., Flags = 0x02000000) -- CPU_ReadMem(128 bytes @ 0x20000740) -- Updating C cache (128 bytes @ 0x20000740) -- Read from C cache (32 bytes @ 0x20000770) - Data: 00 00 00 00 00 00 00 00 00 00 00 00 00 00 00 00 ...  returns 0x20 (0003ms, 122054ms total)
T0E34 4013:336 JLINK_ReadMemEx(0x20000622, 0x0002 Bytes, ..., Flags = 0x02000000) -- CPU_ReadMem(64 bytes @ 0x20000600) -- Updating C cache (64 bytes @ 0x20000600) -- Read from C cache (2 bytes @ 0x20000622) - Data: 00 00  returns 0x02 (0002ms, 122056ms total)
T0E34 4013:338 JLINK_ReadMemEx(0x40003108, 0x0004 Bytes, ..., Flags = 0x02000004) -- CPU_ReadMem(4 bytes @ 0x40003108) - Data: 00 00 00 00  returns 0x04 (0001ms, 122057ms total)
T0E34 4013:339 JLINK_ReadMemEx(0x40003304, 0x0004 Bytes, ..., Flags = 0x02000004) -- CPU_ReadMem(4 bytes @ 0x40003304) - Data: 00 00 00 00  returns 0x04 (0001ms, 122058ms total)
T0E34 4013:340 JLINK_ReadMemEx(0x40003308, 0x0004 Bytes, ..., Flags = 0x02000004) -- CPU_ReadMem(4 bytes @ 0x40003308) - Data: 00 00 00 00  returns 0x04 (0001ms, 122059ms total)
T0E34 4013:341 JLINK_ReadMemEx(0x40003500, 0x0004 Bytes, ..., Flags = 0x02000004) -- CPU_ReadMem(4 bytes @ 0x40003500) - Data: 00 00 00 00  returns 0x04 (0001ms, 122060ms total)
T0E34 4013:342 JLINK_ReadMemEx(0x40003508, 0x0008 Bytes, ..., Flags = 0x02000004) -- CPU_ReadMem(8 bytes @ 0x40003508) - Data: FF FF FF FF FF FF FF FF  returns 0x08 (0001ms, 122061ms total)
T0E34 4013:343 JLINK_ReadMemEx(0x40003510, 0x0004 Bytes, ..., Flags = 0x02000004) -- CPU_ReadMem(4 bytes @ 0x40003510) - Data: FF FF FF FF  returns 0x04 (0000ms, 122061ms total)
T0E34 4013:343 JLINK_ReadMemEx(0x4000351C, 0x0004 Bytes, ..., Flags = 0x02000004) -- CPU_ReadMem(4 bytes @ 0x4000351C) - Data: 00 00 00 00  returns 0x04 (0001ms, 122062ms total)
T0E34 4013:344 JLINK_ReadMemEx(0x40003524, 0x0004 Bytes, ..., Flags = 0x02000004) -- CPU_ReadMem(4 bytes @ 0x40003524) - Data: 00 00 00 04  returns 0x04 (0001ms, 122063ms total)
T0E34 4013:345 JLINK_ReadMemEx(0x40003554, 0x0004 Bytes, ..., Flags = 0x02000004) -- CPU_ReadMem(4 bytes @ 0x40003554) - Data: 00 00 00 00  returns 0x04 (0001ms, 122064ms total)
T0E34 4013:348 JLINK_ReadMemEx(0x00003B64, 0x003C Bytes, ..., Flags = 0x02000000) -- CPU_ReadMem(128 bytes @ 0x00003B40) -- Updating C cache (128 bytes @ 0x00003B40) -- Read from C cache (60 bytes @ 0x00003B64) - Data: FE F7 32 FB 01 20 FD F7 93 FF 02 F0 D3 FB 02 F0 ...  returns 0x3C (0003ms, 122067ms total)
T1350 4017:889 JLINK_ReadMemEx(0x00003B64, 0x0002 Bytes, ..., Flags = 0x02000000) -- Read from C cache (2 bytes @ 0x00003B64) - Data: FE F7  returns 0x02 (0000ms, 122068ms total)
T1350 4017:889 JLINK_SetBPEx(Addr = 0x00001FCE, Type = 0xFFFFFFF2)  returns 0x00000005 (0000ms, 122068ms total)
T1350 4017:889 JLINK_SetBPEx(Addr = 0x00001FCC, Type = 0xFFFFFFF2)  returns 0x00000006 (0000ms, 122068ms total)
T1350 4017:889 JLINK_SetBPEx(Addr = 0x0000367E, Type = 0xFFFFFFF2)  returns 0x00000007 (0000ms, 122068ms total)
T1350 4017:889 JLINK_Go() -- CPU_WriteMem(4 bytes @ 0xE0002000) -- CPU_WriteMem(4 bytes @ 0xE0002000) -- CPU_WriteMem(4 bytes @ 0xE0002000) -- CPU_ReadMem(4 bytes @ 0xE0001000) -- CPU_WriteMem(4 bytes @ 0xE0002008) -- CPU_WriteMem(4 bytes @ 0xE000200C) -- CPU_WriteMem(4 bytes @ 0xE0002010) -- CPU_WriteMem(4 bytes @ 0xE0002014) (0006ms, 122074ms total)
T1350 4017:996 JLINK_IsHalted()  returns FALSE (0001ms, 122075ms total)
T1350 4018:097 JLINK_IsHalted()  returns FALSE (0001ms, 122075ms total)
T1350 4018:199 JLINK_IsHalted()  returns FALSE (0000ms, 122074ms total)
T1350 4018:300 JLINK_IsHalted()  returns FALSE (0001ms, 122075ms total)
T1350 4018:401 JLINK_ReadMemU32(0xE0001004, 0x0001 Items, ...) -- CPU_ReadMem(4 bytes @ 0xE0001004) - Data: 49 29 EF 01  returns 0x01 (0001ms, 122075ms total)
T0E34 4018:403 JLINK_ReadMemEx(0x20000770, 0x0020 Bytes, ..., Flags = 0x02000000) -- CPU_ReadMem(32 bytes @ 0x20000770) - Data: FF 00 00 00 00 00 00 00 00 00 00 00 00 00 00 00 ...  returns 0x20 (0001ms, 122076ms total)
T0E34 4018:405 JLINK_ReadMemEx(0x20000622, 0x0002 Bytes, ..., Flags = 0x02000000) -- CPU_ReadMem(2 bytes @ 0x20000622) - Data: 00 00  returns 0x02 (0001ms, 122077ms total)
T0E34 4018:406 JLINK_ReadMemEx(0x40003108, 0x0004 Bytes, ..., Flags = 0x02000004) -- CPU_ReadMem(4 bytes @ 0x40003108) - Data: 01 00 00 00  returns 0x04 (0001ms, 122078ms total)
T0E34 4018:407 JLINK_ReadMemEx(0x40003304, 0x0004 Bytes, ..., Flags = 0x02000004) -- CPU_ReadMem(4 bytes @ 0x40003304) - Data: 40 00 00 00  returns 0x04 (0001ms, 122079ms total)
T0E34 4018:408 JLINK_ReadMemEx(0x40003308, 0x0004 Bytes, ..., Flags = 0x02000004) -- CPU_ReadMem(4 bytes @ 0x40003308) - Data: 40 00 00 00  returns 0x04 (0001ms, 122080ms total)
T0E34 4018:409 JLINK_ReadMemEx(0x40003500, 0x0004 Bytes, ..., Flags = 0x02000004) -- CPU_ReadMem(4 bytes @ 0x40003500) - Data: 07 00 00 00  returns 0x04 (0001ms, 122081ms total)
T0E34 4018:410 JLINK_ReadMemEx(0x40003508, 0x0008 Bytes, ..., Flags = 0x02000004) -- CPU_ReadMem(8 bytes @ 0x40003508) - Data: 16 00 00 00 18 00 00 00  returns 0x08 (0002ms, 122083ms total)
T0E34 4018:412 JLINK_ReadMemEx(0x40003510, 0x0004 Bytes, ..., Flags = 0x02000004) -- CPU_ReadMem(4 bytes @ 0x40003510) - Data: 17 00 00 00  returns 0x04 (0001ms, 122084ms total)
T0E34 4018:413 JLINK_ReadMemEx(0x4000351C, 0x0004 Bytes, ..., Flags = 0x02000004) -- CPU_ReadMem(4 bytes @ 0x4000351C) - Data: 40 00 00 00  returns 0x04 (0001ms, 122085ms total)
T0E34 4018:414 JLINK_ReadMemEx(0x40003524, 0x0004 Bytes, ..., Flags = 0x02000004) -- CPU_ReadMem(4 bytes @ 0x40003524) - Data: 00 00 00 40  returns 0x04 (0000ms, 122085ms total)
T0E34 4018:414 JLINK_ReadMemEx(0x40003554, 0x0004 Bytes, ..., Flags = 0x02000004) -- CPU_ReadMem(4 bytes @ 0x40003554) - Data: 00 00 00 00  returns 0x04 (0001ms, 122086ms total)
T1350 4018:437 JLINK_IsHalted()  returns FALSE (0001ms, 122087ms total)
T1350 4018:539 JLINK_IsHalted()  returns FALSE (0001ms, 122087ms total)
T1350 4018:640 JLINK_IsHalted()  returns FALSE (0001ms, 122087ms total)
T1350 4018:742 JLINK_IsHalted()  returns FALSE (0001ms, 122087ms total)
T1350 4018:843 JLINK_IsHalted()  returns FALSE (0002ms, 122088ms total)
T1350 4018:945 JLINK_ReadMemU32(0xE0001004, 0x0001 Items, ...) - Data: 49 29 EF 01  returns 0x01 (0000ms, 122086ms total)
T0E34 4018:945 JLINK_ReadMemEx(0x20000770, 0x0020 Bytes, ..., Flags = 0x02000000) -- CPU_ReadMem(32 bytes @ 0x20000770) - Data: FF 00 00 00 00 00 00 00 00 00 00 00 00 00 00 00 ...  returns 0x20 (0002ms, 122088ms total)
T0E34 4018:947 JLINK_ReadMemEx(0x20000622, 0x0002 Bytes, ..., Flags = 0x02000000) -- CPU_ReadMem(2 bytes @ 0x20000622) - Data: 00 00  returns 0x02 (0001ms, 122089ms total)
T0E34 4018:948 JLINK_ReadMemEx(0x40003108, 0x0004 Bytes, ..., Flags = 0x02000004) -- CPU_ReadMem(4 bytes @ 0x40003108) - Data: 01 00 00 00  returns 0x04 (0001ms, 122090ms total)
T0E34 4018:949 JLINK_ReadMemEx(0x40003304, 0x0004 Bytes, ..., Flags = 0x02000004) -- CPU_ReadMem(4 bytes @ 0x40003304) - Data: 40 00 00 00  returns 0x04 (0001ms, 122091ms total)
T0E34 4018:950 JLINK_ReadMemEx(0x40003308, 0x0004 Bytes, ..., Flags = 0x02000004) -- CPU_ReadMem(4 bytes @ 0x40003308) - Data: 40 00 00 00  returns 0x04 (0000ms, 122091ms total)
T0E34 4018:950 JLINK_ReadMemEx(0x40003500, 0x0004 Bytes, ..., Flags = 0x02000004) -- CPU_ReadMem(4 bytes @ 0x40003500) - Data: 07 00 00 00  returns 0x04 (0002ms, 122093ms total)
T0E34 4018:952 JLINK_ReadMemEx(0x40003508, 0x0008 Bytes, ..., Flags = 0x02000004) -- CPU_ReadMem(8 bytes @ 0x40003508) - Data: 16 00 00 00 18 00 00 00  returns 0x08 (0001ms, 122094ms total)
T0E34 4018:953 JLINK_ReadMemEx(0x40003510, 0x0004 Bytes, ..., Flags = 0x02000004) -- CPU_ReadMem(4 bytes @ 0x40003510) - Data: 17 00 00 00  returns 0x04 (0000ms, 122094ms total)
T0E34 4018:953 JLINK_ReadMemEx(0x4000351C, 0x0004 Bytes, ..., Flags = 0x02000004) -- CPU_ReadMem(4 bytes @ 0x4000351C) - Data: 40 00 00 00  returns 0x04 (0001ms, 122095ms total)
T0E34 4018:954 JLINK_ReadMemEx(0x40003524, 0x0004 Bytes, ..., Flags = 0x02000004) -- CPU_ReadMem(4 bytes @ 0x40003524) - Data: 00 00 00 40  returns 0x04 (0001ms, 122096ms total)
T0E34 4018:955 JLINK_ReadMemEx(0x40003554, 0x0004 Bytes, ..., Flags = 0x02000004) -- CPU_ReadMem(4 bytes @ 0x40003554) - Data: 00 00 00 00  returns 0x04 (0002ms, 122098ms total)
T1350 4018:957 JLINK_IsHalted()  returns FALSE (0000ms, 122098ms total)
T1350 4019:058 JLINK_IsHalted()  returns FALSE (0001ms, 122099ms total)
T1350 4019:160 JLINK_IsHalted()  returns FALSE (0001ms, 122099ms total)
T1350 4019:261 JLINK_IsHalted()  returns FALSE (0001ms, 122099ms total)
T1350 4019:363 JLINK_IsHalted()  returns FALSE (0001ms, 122099ms total)
T1350 4019:465 JLINK_ReadMemU32(0xE0001004, 0x0001 Items, ...) - Data: 49 29 EF 01  returns 0x01 (0000ms, 122098ms total)
T0E34 4019:465 JLINK_ReadMemEx(0x20000770, 0x0020 Bytes, ..., Flags = 0x02000000) -- CPU_ReadMem(32 bytes @ 0x20000770) - Data: FF 00 00 00 00 00 00 00 00 00 00 00 00 00 00 00 ...  returns 0x20 (0002ms, 122100ms total)
T0E34 4019:467 JLINK_ReadMemEx(0x20000622, 0x0002 Bytes, ..., Flags = 0x02000000) -- CPU_ReadMem(2 bytes @ 0x20000622) - Data: 00 00  returns 0x02 (0000ms, 122100ms total)
T0E34 4019:467 JLINK_ReadMemEx(0x40003108, 0x0004 Bytes, ..., Flags = 0x02000004) -- CPU_ReadMem(4 bytes @ 0x40003108) - Data: 01 00 00 00  returns 0x04 (0002ms, 122102ms total)
T0E34 4019:469 JLINK_ReadMemEx(0x40003304, 0x0004 Bytes, ..., Flags = 0x02000004) -- CPU_ReadMem(4 bytes @ 0x40003304) - Data: 40 00 00 00  returns 0x04 (0001ms, 122103ms total)
T0E34 4019:470 JLINK_ReadMemEx(0x40003308, 0x0004 Bytes, ..., Flags = 0x02000004) -- CPU_ReadMem(4 bytes @ 0x40003308) - Data: 40 00 00 00  returns 0x04 (0001ms, 122104ms total)
T0E34 4019:471 JLINK_ReadMemEx(0x40003500, 0x0004 Bytes, ..., Flags = 0x02000004) -- CPU_ReadMem(4 bytes @ 0x40003500) - Data: 07 00 00 00  returns 0x04 (0001ms, 122105ms total)
T0E34 4019:472 JLINK_ReadMemEx(0x40003508, 0x0008 Bytes, ..., Flags = 0x02000004) -- CPU_ReadMem(8 bytes @ 0x40003508) - Data: 16 00 00 00 18 00 00 00  returns 0x08 (0001ms, 122106ms total)
T0E34 4019:473 JLINK_ReadMemEx(0x40003510, 0x0004 Bytes, ..., Flags = 0x02000004) -- CPU_ReadMem(4 bytes @ 0x40003510) - Data: 17 00 00 00  returns 0x04 (0001ms, 122107ms total)
T0E34 4019:474 JLINK_ReadMemEx(0x4000351C, 0x0004 Bytes, ..., Flags = 0x02000004) -- CPU_ReadMem(4 bytes @ 0x4000351C) - Data: 40 00 00 00  returns 0x04 (0001ms, 122108ms total)
T0E34 4019:475 JLINK_ReadMemEx(0x40003524, 0x0004 Bytes, ..., Flags = 0x02000004) -- CPU_ReadMem(4 bytes @ 0x40003524) - Data: 00 00 00 40  returns 0x04 (0002ms, 122110ms total)
T0E34 4019:477 JLINK_ReadMemEx(0x40003554, 0x0004 Bytes, ..., Flags = 0x02000004) -- CPU_ReadMem(4 bytes @ 0x40003554) - Data: 00 00 00 00  returns 0x04 (0001ms, 122111ms total)
T1350 4019:478 JLINK_IsHalted()  returns FALSE (0000ms, 122111ms total)
T1350 4019:579 JLINK_IsHalted()  returns FALSE (0001ms, 122112ms total)
T1350 4019:681 JLINK_IsHalted()  returns FALSE (0001ms, 122112ms total)
T1350 4019:783 JLINK_IsHalted()  returns FALSE (0001ms, 122112ms total)
T1350 4019:884 JLINK_IsHalted()  returns FALSE (0001ms, 122112ms total)
T1350 4019:986 JLINK_ReadMemU32(0xE0001004, 0x0001 Items, ...) - Data: 49 29 EF 01  returns 0x01 (0000ms, 122111ms total)
T0E34 4019:986 JLINK_ReadMemEx(0x20000770, 0x0020 Bytes, ..., Flags = 0x02000000) -- CPU_ReadMem(32 bytes @ 0x20000770) - Data: FF 00 00 00 00 00 00 00 00 00 00 00 00 00 00 00 ...  returns 0x20 (0001ms, 122112ms total)
T0E34 4019:987 JLINK_ReadMemEx(0x20000622, 0x0002 Bytes, ..., Flags = 0x02000000) -- CPU_ReadMem(2 bytes @ 0x20000622) - Data: 00 00  returns 0x02 (0001ms, 122113ms total)
T0E34 4019:988 JLINK_ReadMemEx(0x40003108, 0x0004 Bytes, ..., Flags = 0x02000004) -- CPU_ReadMem(4 bytes @ 0x40003108) - Data: 01 00 00 00  returns 0x04 (0002ms, 122115ms total)
T0E34 4019:990 JLINK_ReadMemEx(0x40003304, 0x0004 Bytes, ..., Flags = 0x02000004) -- CPU_ReadMem(4 bytes @ 0x40003304) - Data: 40 00 00 00  returns 0x04 (0000ms, 122115ms total)
T0E34 4019:990 JLINK_ReadMemEx(0x40003308, 0x0004 Bytes, ..., Flags = 0x02000004) -- CPU_ReadMem(4 bytes @ 0x40003308) - Data: 40 00 00 00  returns 0x04 (0001ms, 122116ms total)
T0E34 4019:992 JLINK_ReadMemEx(0x40003500, 0x0004 Bytes, ..., Flags = 0x02000004) -- CPU_ReadMem(4 bytes @ 0x40003500) - Data: 07 00 00 00  returns 0x04 (0001ms, 122117ms total)
T0E34 4019:993 JLINK_ReadMemEx(0x40003508, 0x0008 Bytes, ..., Flags = 0x02000004) -- CPU_ReadMem(8 bytes @ 0x40003508) - Data: 16 00 00 00 18 00 00 00  returns 0x08 (0001ms, 122118ms total)
T0E34 4019:994 JLINK_ReadMemEx(0x40003510, 0x0004 Bytes, ..., Flags = 0x02000004) -- CPU_ReadMem(4 bytes @ 0x40003510) - Data: 17 00 00 00  returns 0x04 (0001ms, 122119ms total)
T0E34 4019:995 JLINK_ReadMemEx(0x4000351C, 0x0004 Bytes, ..., Flags = 0x02000004) -- CPU_ReadMem(4 bytes @ 0x4000351C) - Data: 40 00 00 00  returns 0x04 (0001ms, 122120ms total)
T0E34 4019:996 JLINK_ReadMemEx(0x40003524, 0x0004 Bytes, ..., Flags = 0x02000004) -- CPU_ReadMem(4 bytes @ 0x40003524) - Data: 00 00 00 40  returns 0x04 (0001ms, 122121ms total)
T0E34 4019:997 JLINK_ReadMemEx(0x40003554, 0x0004 Bytes, ..., Flags = 0x02000004) -- CPU_ReadMem(4 bytes @ 0x40003554) - Data: 00 00 00 00  returns 0x04 (0001ms, 122122ms total)
T1350 4019:998 JLINK_IsHalted()  returns FALSE (0001ms, 122123ms total)
T1350 4020:099 JLINK_IsHalted()  returns FALSE (0001ms, 122123ms total)
T1350 4020:201 JLINK_IsHalted()  returns FALSE (0001ms, 122123ms total)
T1350 4020:303 JLINK_IsHalted()  returns FALSE (0001ms, 122123ms total)
T1350 4020:405 JLINK_IsHalted()  returns FALSE (0000ms, 122122ms total)
T1350 4020:506 JLINK_ReadMemU32(0xE0001004, 0x0001 Items, ...) - Data: 49 29 EF 01  returns 0x01 (0000ms, 122122ms total)
T0E34 4020:506 JLINK_ReadMemEx(0x20000770, 0x0020 Bytes, ..., Flags = 0x02000000) -- CPU_ReadMem(32 bytes @ 0x20000770) - Data: FF 00 00 00 00 00 00 00 00 00 00 00 00 00 00 00 ...  returns 0x20 (0002ms, 122124ms total)
T0E34 4020:508 JLINK_ReadMemEx(0x20000622, 0x0002 Bytes, ..., Flags = 0x02000000) -- CPU_ReadMem(2 bytes @ 0x20000622) - Data: 00 00  returns 0x02 (0001ms, 122125ms total)
T0E34 4020:509 JLINK_ReadMemEx(0x40003108, 0x0004 Bytes, ..., Flags = 0x02000004) -- CPU_ReadMem(4 bytes @ 0x40003108) - Data: 01 00 00 00  returns 0x04 (0002ms, 122127ms total)
T0E34 4020:511 JLINK_ReadMemEx(0x40003304, 0x0004 Bytes, ..., Flags = 0x02000004) -- CPU_ReadMem(4 bytes @ 0x40003304) - Data: 40 00 00 00  returns 0x04 (0001ms, 122128ms total)
T0E34 4020:512 JLINK_ReadMemEx(0x40003308, 0x0004 Bytes, ..., Flags = 0x02000004) -- CPU_ReadMem(4 bytes @ 0x40003308) - Data: 40 00 00 00  returns 0x04 (0001ms, 122129ms total)
T0E34 4020:513 JLINK_ReadMemEx(0x40003500, 0x0004 Bytes, ..., Flags = 0x02000004) -- CPU_ReadMem(4 bytes @ 0x40003500) - Data: 07 00 00 00  returns 0x04 (0001ms, 122130ms total)
T0E34 4020:514 JLINK_ReadMemEx(0x40003508, 0x0008 Bytes, ..., Flags = 0x02000004) -- CPU_ReadMem(8 bytes @ 0x40003508) - Data: 16 00 00 00 18 00 00 00  returns 0x08 (0001ms, 122131ms total)
T0E34 4020:515 JLINK_ReadMemEx(0x40003510, 0x0004 Bytes, ..., Flags = 0x02000004) -- CPU_ReadMem(4 bytes @ 0x40003510) - Data: 17 00 00 00  returns 0x04 (0001ms, 122132ms total)
T0E34 4020:516 JLINK_ReadMemEx(0x4000351C, 0x0004 Bytes, ..., Flags = 0x02000004) -- CPU_ReadMem(4 bytes @ 0x4000351C) - Data: 40 00 00 00  returns 0x04 (0001ms, 122133ms total)
T0E34 4020:517 JLINK_ReadMemEx(0x40003524, 0x0004 Bytes, ..., Flags = 0x02000004) -- CPU_ReadMem(4 bytes @ 0x40003524) - Data: 00 00 00 40  returns 0x04 (0002ms, 122135ms total)
T0E34 4020:519 JLINK_ReadMemEx(0x40003554, 0x0004 Bytes, ..., Flags = 0x02000004) -- CPU_ReadMem(4 bytes @ 0x40003554) - Data: 00 00 00 00  returns 0x04 (0001ms, 122136ms total)
T1350 4020:520 JLINK_IsHalted()  returns FALSE (0001ms, 122137ms total)
T1350 4020:621 JLINK_IsHalted()  returns FALSE (0001ms, 122137ms total)
T1350 4020:723 JLINK_IsHalted()  returns FALSE (0001ms, 122137ms total)
T1350 4020:824 JLINK_IsHalted()  returns FALSE (0002ms, 122138ms total)
T1350 4020:926 JLINK_IsHalted()  returns FALSE (0001ms, 122137ms total)
T1350 4021:028 JLINK_ReadMemU32(0xE0001004, 0x0001 Items, ...) - Data: 49 29 EF 01  returns 0x01 (0000ms, 122136ms total)
T0E34 4021:028 JLINK_ReadMemEx(0x20000770, 0x0020 Bytes, ..., Flags = 0x02000000) -- CPU_ReadMem(32 bytes @ 0x20000770) - Data: FF 00 00 00 00 00 00 00 00 00 00 00 00 00 00 00 ...  returns 0x20 (0001ms, 122137ms total)
T0E34 4021:029 JLINK_ReadMemEx(0x20000622, 0x0002 Bytes, ..., Flags = 0x02000000) -- CPU_ReadMem(2 bytes @ 0x20000622) - Data: 00 00  returns 0x02 (0001ms, 122138ms total)
T0E34 4021:030 JLINK_ReadMemEx(0x40003108, 0x0004 Bytes, ..., Flags = 0x02000004) -- CPU_ReadMem(4 bytes @ 0x40003108) - Data: 01 00 00 00  returns 0x04 (0002ms, 122140ms total)
T0E34 4021:032 JLINK_ReadMemEx(0x40003304, 0x0004 Bytes, ..., Flags = 0x02000004) -- CPU_ReadMem(4 bytes @ 0x40003304) - Data: 40 00 00 00  returns 0x04 (0001ms, 122141ms total)
T0E34 4021:033 JLINK_ReadMemEx(0x40003308, 0x0004 Bytes, ..., Flags = 0x02000004) -- CPU_ReadMem(4 bytes @ 0x40003308) - Data: 40 00 00 00  returns 0x04 (0001ms, 122142ms total)
T0E34 4021:034 JLINK_ReadMemEx(0x40003500, 0x0004 Bytes, ..., Flags = 0x02000004) -- CPU_ReadMem(4 bytes @ 0x40003500) - Data: 07 00 00 00  returns 0x04 (0001ms, 122143ms total)
T0E34 4021:035 JLINK_ReadMemEx(0x40003508, 0x0008 Bytes, ..., Flags = 0x02000004) -- CPU_ReadMem(8 bytes @ 0x40003508) - Data: 16 00 00 00 18 00 00 00  returns 0x08 (0001ms, 122144ms total)
T0E34 4021:036 JLINK_ReadMemEx(0x40003510, 0x0004 Bytes, ..., Flags = 0x02000004) -- CPU_ReadMem(4 bytes @ 0x40003510) - Data: 17 00 00 00  returns 0x04 (0002ms, 122146ms total)
T0E34 4021:038 JLINK_ReadMemEx(0x4000351C, 0x0004 Bytes, ..., Flags = 0x02000004) -- CPU_ReadMem(4 bytes @ 0x4000351C) - Data: 40 00 00 00  returns 0x04 (0001ms, 122147ms total)
T0E34 4021:039 JLINK_ReadMemEx(0x40003524, 0x0004 Bytes, ..., Flags = 0x02000004) -- CPU_ReadMem(4 bytes @ 0x40003524) - Data: 00 00 00 40  returns 0x04 (0001ms, 122148ms total)
T0E34 4021:040 JLINK_ReadMemEx(0x40003554, 0x0004 Bytes, ..., Flags = 0x02000004) -- CPU_ReadMem(4 bytes @ 0x40003554) - Data: 00 00 00 00  returns 0x04 (0001ms, 122149ms total)
T1350 4021:042 JLINK_IsHalted()  returns FALSE (0000ms, 122149ms total)
T1350 4021:143 JLINK_IsHalted()  returns FALSE (0001ms, 122150ms total)
T1350 4021:244 JLINK_IsHalted()  returns FALSE (0001ms, 122150ms total)
T1350 4021:345 JLINK_IsHalted()  returns FALSE (0001ms, 122150ms total)
T1350 4021:447 JLINK_IsHalted()  returns FALSE (0001ms, 122150ms total)
T1350 4021:549 JLINK_ReadMemU32(0xE0001004, 0x0001 Items, ...) - Data: 49 29 EF 01  returns 0x01 (0000ms, 122149ms total)
T0E34 4021:549 JLINK_ReadMemEx(0x20000770, 0x0020 Bytes, ..., Flags = 0x02000000) -- CPU_ReadMem(32 bytes @ 0x20000770) - Data: FF 00 00 00 00 00 00 00 00 00 00 00 00 00 00 00 ...  returns 0x20 (0001ms, 122150ms total)
T0E34 4021:550 JLINK_ReadMemEx(0x20000622, 0x0002 Bytes, ..., Flags = 0x02000000) -- CPU_ReadMem(2 bytes @ 0x20000622) - Data: 00 00  returns 0x02 (0002ms, 122152ms total)
T0E34 4021:552 JLINK_ReadMemEx(0x40003108, 0x0004 Bytes, ..., Flags = 0x02000004) -- CPU_ReadMem(4 bytes @ 0x40003108) - Data: 01 00 00 00  returns 0x04 (0001ms, 122153ms total)
T0E34 4021:553 JLINK_ReadMemEx(0x40003304, 0x0004 Bytes, ..., Flags = 0x02000004) -- CPU_ReadMem(4 bytes @ 0x40003304) - Data: 40 00 00 00  returns 0x04 (0001ms, 122154ms total)
T0E34 4021:554 JLINK_ReadMemEx(0x40003308, 0x0004 Bytes, ..., Flags = 0x02000004) -- CPU_ReadMem(4 bytes @ 0x40003308) - Data: 40 00 00 00  returns 0x04 (0001ms, 122155ms total)
T0E34 4021:555 JLINK_ReadMemEx(0x40003500, 0x0004 Bytes, ..., Flags = 0x02000004) -- CPU_ReadMem(4 bytes @ 0x40003500) - Data: 07 00 00 00  returns 0x04 (0001ms, 122156ms total)
T0E34 4021:556 JLINK_ReadMemEx(0x40003508, 0x0008 Bytes, ..., Flags = 0x02000004) -- CPU_ReadMem(8 bytes @ 0x40003508) - Data: 16 00 00 00 18 00 00 00  returns 0x08 (0001ms, 122157ms total)
T0E34 4021:557 JLINK_ReadMemEx(0x40003510, 0x0004 Bytes, ..., Flags = 0x02000004) -- CPU_ReadMem(4 bytes @ 0x40003510) - Data: 17 00 00 00  returns 0x04 (0001ms, 122158ms total)
T0E34 4021:558 JLINK_ReadMemEx(0x4000351C, 0x0004 Bytes, ..., Flags = 0x02000004) -- CPU_ReadMem(4 bytes @ 0x4000351C) - Data: 40 00 00 00  returns 0x04 (0002ms, 122160ms total)
T0E34 4021:560 JLINK_ReadMemEx(0x40003524, 0x0004 Bytes, ..., Flags = 0x02000004) -- CPU_ReadMem(4 bytes @ 0x40003524) - Data: 00 00 00 40  returns 0x04 (0001ms, 122161ms total)
T0E34 4021:561 JLINK_ReadMemEx(0x40003554, 0x0004 Bytes, ..., Flags = 0x02000004) -- CPU_ReadMem(4 bytes @ 0x40003554) - Data: 00 00 00 00  returns 0x04 (0001ms, 122162ms total)
T1350 4021:562 JLINK_IsHalted()  returns FALSE (0001ms, 122163ms total)
T1350 4021:663 JLINK_IsHalted()  returns FALSE (0002ms, 122164ms total)
T1350 4021:765 JLINK_IsHalted()  returns FALSE (0000ms, 122162ms total)
T1350 4021:866 JLINK_IsHalted()  returns FALSE (0001ms, 122163ms total)
T1350 4021:968 JLINK_IsHalted()  returns FALSE (0001ms, 122163ms total)
T1350 4022:069 JLINK_ReadMemU32(0xE0001004, 0x0001 Items, ...) - Data: 49 29 EF 01  returns 0x01 (0000ms, 122162ms total)
T0E34 4022:069 JLINK_ReadMemEx(0x20000770, 0x0020 Bytes, ..., Flags = 0x02000000) -- CPU_ReadMem(32 bytes @ 0x20000770) - Data: FF 00 00 00 00 00 00 00 00 00 00 00 00 00 00 00 ...  returns 0x20 (0002ms, 122164ms total)
T0E34 4022:071 JLINK_ReadMemEx(0x20000622, 0x0002 Bytes, ..., Flags = 0x02000000) -- CPU_ReadMem(2 bytes @ 0x20000622) - Data: 00 00  returns 0x02 (0001ms, 122165ms total)
T0E34 4022:072 JLINK_ReadMemEx(0x40003108, 0x0004 Bytes, ..., Flags = 0x02000004) -- CPU_ReadMem(4 bytes @ 0x40003108) - Data: 01 00 00 00  returns 0x04 (0001ms, 122166ms total)
T0E34 4022:073 JLINK_ReadMemEx(0x40003304, 0x0004 Bytes, ..., Flags = 0x02000004) -- CPU_ReadMem(4 bytes @ 0x40003304) - Data: 40 00 00 00  returns 0x04 (0001ms, 122167ms total)
T0E34 4022:074 JLINK_ReadMemEx(0x40003308, 0x0004 Bytes, ..., Flags = 0x02000004) -- CPU_ReadMem(4 bytes @ 0x40003308) - Data: 40 00 00 00  returns 0x04 (0002ms, 122169ms total)
T0E34 4022:076 JLINK_ReadMemEx(0x40003500, 0x0004 Bytes, ..., Flags = 0x02000004) -- CPU_ReadMem(4 bytes @ 0x40003500) - Data: 07 00 00 00  returns 0x04 (0001ms, 122170ms total)
T0E34 4022:077 JLINK_ReadMemEx(0x40003508, 0x0008 Bytes, ..., Flags = 0x02000004) -- CPU_ReadMem(8 bytes @ 0x40003508) - Data: 16 00 00 00 18 00 00 00  returns 0x08 (0001ms, 122171ms total)
T0E34 4022:078 JLINK_ReadMemEx(0x40003510, 0x0004 Bytes, ..., Flags = 0x02000004) -- CPU_ReadMem(4 bytes @ 0x40003510) - Data: 17 00 00 00  returns 0x04 (0001ms, 122172ms total)
T0E34 4022:079 JLINK_ReadMemEx(0x4000351C, 0x0004 Bytes, ..., Flags = 0x02000004) -- CPU_ReadMem(4 bytes @ 0x4000351C) - Data: 40 00 00 00  returns 0x04 (0002ms, 122174ms total)
T0E34 4022:081 JLINK_ReadMemEx(0x40003524, 0x0004 Bytes, ..., Flags = 0x02000004) -- CPU_ReadMem(4 bytes @ 0x40003524) - Data: 00 00 00 40  returns 0x04 (0001ms, 122175ms total)
T0E34 4022:082 JLINK_ReadMemEx(0x40003554, 0x0004 Bytes, ..., Flags = 0x02000004) -- CPU_ReadMem(4 bytes @ 0x40003554) - Data: 00 00 00 00  returns 0x04 (0001ms, 122176ms total)
T1350 4022:083 JLINK_IsHalted()  returns FALSE (0001ms, 122177ms total)
T1350 4022:184 JLINK_IsHalted()  returns FALSE (0001ms, 122177ms total)
T1350 4022:286 JLINK_IsHalted()  returns FALSE (0001ms, 122177ms total)
T1350 4022:388 JLINK_IsHalted()  returns FALSE (0000ms, 122176ms total)
T1350 4022:489 JLINK_IsHalted()  returns FALSE (0000ms, 122176ms total)
T1350 4022:590 JLINK_ReadMemU32(0xE0001004, 0x0001 Items, ...) - Data: 49 29 EF 01  returns 0x01 (0000ms, 122176ms total)
T0E34 4022:590 JLINK_ReadMemEx(0x20000770, 0x0020 Bytes, ..., Flags = 0x02000000) -- CPU_ReadMem(32 bytes @ 0x20000770) - Data: FF 84 63 F4 C4 F7 81 03 84 20 F3 C6 F6 63 03 84 ...  returns 0x20 (0001ms, 122177ms total)
T0E34 4022:592 JLINK_ReadMemEx(0x20000622, 0x0002 Bytes, ..., Flags = 0x02000000) -- CPU_ReadMem(2 bytes @ 0x20000622) - Data: C4 F7  returns 0x02 (0001ms, 122178ms total)
T0E34 4022:593 JLINK_ReadMemEx(0x40003108, 0x0004 Bytes, ..., Flags = 0x02000004) -- CPU_ReadMem(4 bytes @ 0x40003108) - Data: 01 00 00 00  returns 0x04 (0001ms, 122179ms total)
T0E34 4022:594 JLINK_ReadMemEx(0x40003304, 0x0004 Bytes, ..., Flags = 0x02000004) -- CPU_ReadMem(4 bytes @ 0x40003304) - Data: 40 00 00 00  returns 0x04 (0001ms, 122180ms total)
T0E34 4022:595 JLINK_ReadMemEx(0x40003308, 0x0004 Bytes, ..., Flags = 0x02000004) -- CPU_ReadMem(4 bytes @ 0x40003308) - Data: 40 00 00 00  returns 0x04 (0001ms, 122181ms total)
T0E34 4022:596 JLINK_ReadMemEx(0x40003500, 0x0004 Bytes, ..., Flags = 0x02000004) -- CPU_ReadMem(4 bytes @ 0x40003500) - Data: 07 00 00 00  returns 0x04 (0001ms, 122182ms total)
T0E34 4022:597 JLINK_ReadMemEx(0x40003508, 0x0008 Bytes, ..., Flags = 0x02000004) -- CPU_ReadMem(8 bytes @ 0x40003508) - Data: 16 00 00 00 18 00 00 00  returns 0x08 (0001ms, 122183ms total)
T0E34 4022:598 JLINK_ReadMemEx(0x40003510, 0x0004 Bytes, ..., Flags = 0x02000004) -- CPU_ReadMem(4 bytes @ 0x40003510) - Data: 17 00 00 00  returns 0x04 (0001ms, 122184ms total)
T0E34 4022:599 JLINK_ReadMemEx(0x4000351C, 0x0004 Bytes, ..., Flags = 0x02000004) -- CPU_ReadMem(4 bytes @ 0x4000351C) - Data: A4 00 00 00  returns 0x04 (0002ms, 122186ms total)
T0E34 4022:601 JLINK_ReadMemEx(0x40003524, 0x0004 Bytes, ..., Flags = 0x02000004) -- CPU_ReadMem(4 bytes @ 0x40003524) - Data: 00 00 00 40  returns 0x04 (0000ms, 122186ms total)
